T48E4 586552:615 SEGGER J-Link V5.02i Log File (0000ms, 49772ms total)
T48E4 586552:615 DLL Compiled: Nov  3 2015 17:24:17 (0000ms, 49772ms total)
T48E4 586552:615 Logging started @ 2023-04-04 16:48 (0000ms, 49772ms total)
T48E4 586552:615 JLINK_SetWarnOutHandler(...) (0000ms, 49772ms total)
T48E4 586552:615 JLINK_OpenEx(...)
Firmware: J-Link V11 compiled Sep 21 2020 17:00:29
Hardware: V11.00
S/N: 261009615
OEM: SEGGER-EDU
Feature(s): FlashBP, GDB  returns O.K. (0276ms, 50048ms total)
T48E4 586552:891 JLINK_GetEmuCaps()  returns 0xF9FF7BFF (0001ms, 50049ms total)
T48E4 586552:892 JLINK_TIF_GetAvailable(...) (0000ms, 50049ms total)
T48E4 586552:892 JLINK_SetErrorOutHandler(...) (0000ms, 50049ms total)
T48E4 586552:892 JLINK_ExecCommand("ProjectFile = "H:\BIHAR_SINGLE_SIM\2021-001-ARG-BIHAR-main\JLinkSettings.ini"", ...)  returns 0x00 (0001ms, 50050ms total)
T48E4 586552:907 JLINK_ExecCommand("Device = LPC1768", ...)Device "LPC1768" selected.  returns 0x00 (0011ms, 50061ms total)
T48E4 586552:918 JLINK_ExecCommand("DisableConnectionTimeout", ...)  returns 0x01 (0000ms, 50061ms total)
T48E4 586552:918 JLINK_GetHardwareVersion()  returns 0x1ADB0 (0000ms, 50061ms total)
T48E4 586552:918 JLINK_GetDLLVersion()  returns 50209 (0000ms, 50061ms total)
T48E4 586552:959 JLINK_GetDLLVersion()  returns 50209 (0000ms, 50061ms total)
T48E4 586552:959 JLINK_GetCompileDateTime() (0000ms, 50061ms total)
T48E4 586552:964 JLINK_GetFirmwareString(...) (0000ms, 50061ms total)
T48E4 586552:968 JLINK_GetHardwareVersion()  returns 0x1ADB0 (0000ms, 50061ms total)
T48E4 586552:992 JLINK_TIF_Select(JLINKARM_TIF_JTAG)  returns 0x00 (0002ms, 50063ms total)
T48E4 586552:994 JLINK_SetSpeed(50000) (0000ms, 50063ms total)
T48E4 586552:994 JLINK_GetIdData(...) >0x2F8 JTAG>TotalIRLen = 4, IRPrint = 0x01 >0x30 JTAG> >0x210 JTAG> >0x70 JTAG> >0x40 JTAG> >0x40 JTAG> >0x40 JTAG> >0x48 JTAG> >0x78 JTAG> >0x40 JTAG> >0x30 JTAG> >0x40 JTAG> >0x40 JTAG> >0x30 JTAG> >0x40 JTAG> >0x48 JTAG>Found Cortex-M3 r2p0, Little endian. -- CPU_ReadMem(4 bytes @ 0xE000EDF0) -- CPU_WriteMem(4 bytes @ 0xE000EDF0) -- CPU_ReadMem(4 bytes @ 0xE0002000)FPUnit: 6 code (BP) slots and 2 literal slots -- CPU_ReadMem(4 bytes @ 0xE000EDFC)
 -- CPU_WriteMem(4 bytes @ 0xE000EDFC) -- CPU_ReadMem(4 bytes @ 0xE0001000) -- CPU_WriteMem(4 bytes @ 0xE0001000) -- CPU_ReadMem(4 bytes @ 0xE000ED88) -- CPU_WriteMem(4 bytes @ 0xE000ED88) -- CPU_ReadMem(4 bytes @ 0xE000ED88) -- CPU_WriteMem(4 bytes @ 0xE000ED88)CoreSight components:ROMTbl 0 @ E00FF000 -- CPU_ReadMem(16 bytes @ 0xE00FF000) -- CPU_ReadMem(16 bytes @ 0xE000EFF0) -- CPU_ReadMem(16 bytes @ 0xE000EFE0)ROMTbl 0 [0]: FFF0F000, CID: B105E00D, PID: 002BB000 SCS
 -- CPU_ReadMem(16 bytes @ 0xE0001FF0) -- CPU_ReadMem(16 bytes @ 0xE0001FE0)ROMTbl 0 [1]: FFF02000, CID: B105E00D, PID: 002BB002 DWT -- CPU_ReadMem(16 bytes @ 0xE0002FF0) -- CPU_ReadMem(16 bytes @ 0xE0002FE0)ROMTbl 0 [2]: FFF03000, CID: B105E00D, PID: 002BB003 FPB -- CPU_ReadMem(16 bytes @ 0xE0000FF0) -- CPU_ReadMem(16 bytes @ 0xE0000FE0)ROMTbl 0 [3]: FFF01000, CID: B105E00D, PID: 002BB001 ITM -- CPU_ReadMem(16 bytes @ 0xE00FF010) -- CPU_ReadMem(16 bytes @ 0xE0040FF0)
 -- CPU_ReadMem(16 bytes @ 0xE0040FE0)ROMTbl 0 [4]: FFF41000, CID: B105900D, PID: 002BB923 TPIU-Lite -- CPU_ReadMem(16 bytes @ 0xE0041FF0) -- CPU_ReadMem(16 bytes @ 0xE0041FE0)ROMTbl 0 [5]: FFF42000, CID: B105900D, PID: 002BB924 ETM-M3 ScanLen=4 NumDevices=1 aId[0]=0x4BA00477 aIrRead[0]=0 aScanLen[0]=0 aScanRead[0]=0 (0079ms, 50142ms total)
T48E4 586553:073 JLINK_JTAG_GetDeviceID(DeviceIndex = 0)  returns 0x4BA00477 (0000ms, 50142ms total)
T48E4 586553:073 JLINK_JTAG_GetDeviceInfo(DeviceIndex = 0)  returns 0x00 (0000ms, 50142ms total)
T48E4 586553:073 JLINK_GetDLLVersion()  returns 50209 (0000ms, 50142ms total)
T48E4 586553:073 JLINK_CORE_GetFound()  returns 0x30000FF (0000ms, 50142ms total)
T48E4 586553:073 JLINK_GetDebugInfo(0x100) -- Value=0xE00FF003  returns 0x00 (0000ms, 50142ms total)
T48E4 586553:078 JLINK_GetDebugInfo(0x100) -- Value=0xE00FF003  returns 0x00 (0000ms, 50142ms total)
T48E4 586553:078 JLINK_GetDebugInfo(0x101) -- Value=0xE0041000  returns 0x00 (0000ms, 50142ms total)
T48E4 586553:078 JLINK_ReadMemEx(0xE0041FD0, 0x0020 Bytes, ..., AccessWidth = 33554436) -- CPU is running -- CPU_ReadMem(32 bytes @ 0xE0041FD0) - Data: 04 00 00 00 00 00 00 00 00 00 00 00 00 00 00 00 ...  returns 0x20 (0001ms, 50143ms total)
T48E4 586553:079 JLINK_GetDebugInfo(0x102) -- Value=0x00000000  returns 0x00 (0000ms, 50143ms total)
T48E4 586553:079 JLINK_GetDebugInfo(0x103) -- Value=0xE0040000  returns 0x00 (0000ms, 50143ms total)
T48E4 586553:079 JLINK_GetDebugInfo(0x104) -- Value=0xE0000000  returns 0x00 (0000ms, 50143ms total)
T48E4 586553:079 JLINK_GetDebugInfo(0x105) -- Value=0xE0001000  returns 0x00 (0000ms, 50143ms total)
T48E4 586553:079 JLINK_GetDebugInfo(0x106) -- Value=0xE0002000  returns 0x00 (0000ms, 50143ms total)
T48E4 586553:079 JLINK_GetDebugInfo(0x107) -- Value=0xE000E000  returns 0x00 (0000ms, 50143ms total)
T48E4 586553:079 JLINK_GetDebugInfo(0x10C) -- Value=0xE000EDF0  returns 0x00 (0000ms, 50143ms total)
T48E4 586553:079 JLINK_GetDebugInfo(0x01)  returns 0xFFFFFFFF (0000ms, 50143ms total)
T48E4 586553:079 JLINK_GetDeviceFamily()  returns 3 (0000ms, 50143ms total)
T48E4 586553:079 JLINK_ReadMemU32(0xE000ED00, 0x0001 Items, ...) -- CPU is running -- CPU_ReadMem(4 bytes @ 0xE000ED00) - Data: 30 C2 2F 41  returns 0x01 (0001ms, 50144ms total)
T48E4 586553:080 JLINK_GetDebugInfo(0x10F)  returns 0xFFFFFFFF (0000ms, 50144ms total)
T48E4 586553:080 JLINK_SetResetType(JLINKARM_RESET_TYPE_NORMAL)  returns ??? (0000ms, 50144ms total)
T48E4 586553:080 JLINK_Reset() -- CPU is running -- CPU_WriteMem(4 bytes @ 0xE000EDF0) -- CPU is running -- CPU_WriteMem(4 bytes @ 0xE000EDFC) -- CPU is running -- CPU_WriteMem(4 bytes @ 0xE000ED0C) -- CPU is running -- CPU_ReadMem(4 bytes @ 0xE000EDF0) -- CPU is running -- CPU_ReadMem(4 bytes @ 0xE000EDF0) -- CPU is running -- CPU_WriteMem(4 bytes @ 0xE000EDF0) -- CPU is running -- CPU_WriteMem(4 bytes @ 0xE000EDFC) -- CPU is running -- CPU_ReadMem(4 bytes @ 0xE000EDF0) >0x78 JTAG> >0x40 JTAG>
 >0x30 JTAG> >0x40 JTAG> >0x48 JTAG> >0x40 JTAG> -- CPU_WriteMem(4 bytes @ 0xE000EDFC) -- CPU_WriteMem(4 bytes @ 0xE0001028) -- CPU_WriteMem(4 bytes @ 0xE0001038) -- CPU_WriteMem(4 bytes @ 0xE0001048) -- CPU_WriteMem(4 bytes @ 0xE0001058) -- CPU_WriteMem(4 bytes @ 0xE000EDFC) -- CPU_WriteMem(4 bytes @ 0xE000EDFC) -- CPU_WriteMem(4 bytes @ 0xE000EDFC) -- CPU_WriteMem(4 bytes @ 0xE000EDFC) -- CPU_WriteMem(4 bytes @ 0xE000EDFC) -- CPU_WriteMem(4 bytes @ 0xE0001050) -- CPU_WriteMem(4 bytes @ 0xE0001054)
 -- CPU_WriteMem(4 bytes @ 0xE0001058) -- CPU_ReadMem(4 bytes @ 0xE0001000) -- CPU_WriteMem(4 bytes @ 0xE000EDFC) -- CPU_WriteMem(4 bytes @ 0xE0001058) -- CPU_ReadMem(4 bytes @ 0x00000004) -- CPU_ReadMem(4 bytes @ 0xE0002000) -- CPU_ReadMem(4 bytes @ 0xE0002008) -- CPU_ReadMem(4 bytes @ 0xE000200C) -- CPU_ReadMem(4 bytes @ 0xE0002010) -- CPU_ReadMem(4 bytes @ 0xE0002014) -- CPU_ReadMem(4 bytes @ 0xE0002018) -- CPU_ReadMem(4 bytes @ 0xE000201C) -- CPU_WriteMem(4 bytes @ 0xE0002000)
 -- CPU_WriteMem(4 bytes @ 0xE0002008) -- CPU_WriteMem(4 bytes @ 0xE000200C) -- CPU_WriteMem(4 bytes @ 0xE0002010) -- CPU_WriteMem(4 bytes @ 0xE0002014) -- CPU_WriteMem(4 bytes @ 0xE0002018) -- CPU_WriteMem(4 bytes @ 0xE000201C) -- CPU_ReadMem(4 bytes @ 0xE0001000) -- CPU_ReadMem(4 bytes @ 0x400FC040) -- CPU_WriteMem(4 bytes @ 0xE0002000) -- CPU_WriteMem(4 bytes @ 0xE0002008) -- CPU_WriteMem(4 bytes @ 0xE000200C) -- CPU_WriteMem(4 bytes @ 0xE0002010) -- CPU_WriteMem(4 bytes @ 0xE0002014)
 -- CPU_WriteMem(4 bytes @ 0xE0002018) -- CPU_WriteMem(4 bytes @ 0xE000201C) -- CPU_WriteMem(4 bytes @ 0xE0002000) -- CPU_ReadMem(4 bytes @ 0xE000EDFC) -- CPU_ReadMem(4 bytes @ 0xE0001000) >0x06 JTAG> (0241ms, 50385ms total)
T48E4 586553:321 JLINK_Halt()  returns 0x00 (0000ms, 50385ms total)
T48E4 586553:321 JLINK_ReadMemU32(0xE000EDF0, 0x0001 Items, ...) -- CPU_ReadMem(4 bytes @ 0xE000EDF0) - Data: 03 00 03 00  returns 0x01 (0000ms, 50385ms total)
T48E4 586553:321 JLINK_WriteU32(0xE000EDF0, 0xA05F0003) -- CPU_WriteMem(4 bytes @ 0xE000EDF0)  returns 0x00 (0002ms, 50387ms total)
T48E4 586553:323 JLINK_WriteU32(0xE000EDFC, 0x01000000) -- CPU_WriteMem(4 bytes @ 0xE000EDFC)  returns 0x00 (0000ms, 50387ms total)
T48E4 586553:341 JLINK_GetHWStatus(...)  returns 0x00 (0000ms, 50387ms total)
T48E4 586553:354 JLINK_GetNumBPUnits(Type = 0xFFFFFF00)  returns 0x06 (0000ms, 50387ms total)
T48E4 586553:354 JLINK_GetNumBPUnits(Type = 0xF0)  returns 0x2000 (0000ms, 50387ms total)
T48E4 586553:354 JLINK_GetNumWPUnits()  returns 0x04 (0000ms, 50387ms total)
T48E4 586553:370 JLINK_GetSpeed()  returns 0x3A98 (0000ms, 50387ms total)
T48E4 586553:384 JLINK_ReadMemU32(0xE000E004, 0x0001 Items, ...) -- CPU_ReadMem(4 bytes @ 0xE000E004) - Data: 01 00 00 00  returns 0x01 (0001ms, 50389ms total)
T48E4 586553:385 JLINK_ReadMemU32(0xE000E004, 0x0001 Items, ...) -- CPU_ReadMem(4 bytes @ 0xE000E004) - Data: 01 00 00 00  returns 0x01 (0000ms, 50389ms total)
T48E4 586553:385 JLINK_WriteMemEx(0xE0001000, 0x001C Bytes, ..., AccessWidth = 33554436) - Data: 01 00 00 00 00 00 00 00 00 00 00 00 00 00 00 00 ... -- CPU_WriteMem(28 bytes @ 0xE0001000)  returns 0x1C (0001ms, 50390ms total)
T48E4 586553:386 JLINK_Halt()  returns 0x00 (0000ms, 50390ms total)
T48E4 586553:386 JLINK_IsHalted() -- CPU_ReadMem(4 bytes @ 0x400FC040)  returns TRUE (0000ms, 50390ms total)
T48E4 586553:392 JLINK_WriteMem(0x10000000, 0x01E4 Bytes, ...) - Data: 00 BE 0A E0 0D 78 2D 06 68 40 08 24 40 00 00 D3 ... -- CPU_WriteMem(484 bytes @ 0x10000000)  returns 0x1E4 (0003ms, 50393ms total)
T48E4 586553:395 JLINK_WriteReg(R0, 0x00000000)  returns 0x00 (0000ms, 50393ms total)
T48E4 586553:395 JLINK_WriteReg(R1, 0x00B71B00)  returns 0x00 (0000ms, 50393ms total)
T48E4 586553:395 JLINK_WriteReg(R2, 0x00000001)  returns 0x00 (0000ms, 50393ms total)
T48E4 586553:395 JLINK_WriteReg(R3, 0x00000000)  returns 0x00 (0000ms, 50393ms total)
T48E4 586553:395 JLINK_WriteReg(R4, 0x00000000)  returns 0x00 (0000ms, 50393ms total)
T48E4 586553:395 JLINK_WriteReg(R5, 0x00000000)  returns 0x00 (0000ms, 50393ms total)
T48E4 586553:395 JLINK_WriteReg(R6, 0x00000000)  returns 0x00 (0000ms, 50393ms total)
T48E4 586553:395 JLINK_WriteReg(R7, 0x00000000)  returns 0x00 (0000ms, 50393ms total)
T48E4 586553:395 JLINK_WriteReg(R8, 0x00000000)  returns 0x00 (0000ms, 50393ms total)
T48E4 586553:395 JLINK_WriteReg(R9, 0x100001DC)  returns 0x00 (0000ms, 50393ms total)
T48E4 586553:395 JLINK_WriteReg(R10, 0x00000000)  returns 0x00 (0000ms, 50393ms total)
T48E4 586553:395 JLINK_WriteReg(R11, 0x00000000)  returns 0x00 (0000ms, 50393ms total)
T48E4 586553:395 JLINK_WriteReg(R12, 0x00000000)  returns 0x00 (0000ms, 50393ms total)
T48E4 586553:395 JLINK_WriteReg(R13 (SP), 0x10000FE0)  returns 0x00 (0000ms, 50393ms total)
T48E4 586553:395 JLINK_WriteReg(R14, 0x10000001)  returns 0x00 (0000ms, 50393ms total)
T48E4 586553:395 JLINK_WriteReg(R15 (PC), 0x10000044)  returns 0x00 (0000ms, 50393ms total)
T48E4 586553:395 JLINK_WriteReg(XPSR, 0x01000000)  returns 0x00 (0000ms, 50393ms total)
T48E4 586553:395 JLINK_WriteReg(MSP, 0x10000FE0)  returns 0x00 (0000ms, 50393ms total)
T48E4 586553:395 JLINK_WriteReg(PSP, 0x10000FE0)  returns 0x00 (0000ms, 50393ms total)
T48E4 586553:395 JLINK_WriteReg(CFBP, 0x00000000)  returns 0x00 (0000ms, 50393ms total)
T48E4 586553:395 JLINK_SetBPEx(Addr = 0x10000000, Type = 0xFFFFFFF2)  returns 0x00000001 (0000ms, 50393ms total)
T48E4 586553:396 JLINK_Go() -- CPU_ReadMem(4 bytes @ 0xE0001000) -- CPU_WriteMem(4 bytes @ 0xE0002008) -- CPU_WriteMem(4 bytes @ 0xE000200C) -- CPU_WriteMem(4 bytes @ 0xE0002010) -- CPU_WriteMem(4 bytes @ 0xE0002014) -- CPU_WriteMem(4 bytes @ 0xE0002018) -- CPU_WriteMem(4 bytes @ 0xE000201C) -- CPU_WriteMem(4 bytes @ 0xE0001004) (0003ms, 50396ms total)
T48E4 586553:399 JLINK_IsHalted()  returns TRUE (0002ms, 50398ms total)
T48E4 586553:401 JLINK_ReadReg(R15 (PC))  returns 0x10000000 (0000ms, 50396ms total)
T48E4 586553:401 JLINK_ClrBPEx(BPHandle = 0x00000001)  returns 0x00 (0000ms, 50396ms total)
T48E4 586553:401 JLINK_ReadReg(R0)  returns 0x00000000 (0000ms, 50396ms total)
T48E4 586553:402 JLINK_WriteReg(R0, 0x00000000)  returns 0x00 (0000ms, 50396ms total)
T48E4 586553:402 JLINK_WriteReg(R1, 0x00001000)  returns 0x00 (0000ms, 50396ms total)
T48E4 586553:402 JLINK_WriteReg(R2, 0x000000FF)  returns 0x00 (0000ms, 50396ms total)
T48E4 586553:402 JLINK_WriteReg(R3, 0x00000000)  returns 0x00 (0000ms, 50396ms total)
T48E4 586553:402 JLINK_WriteReg(R4, 0x00000000)  returns 0x00 (0000ms, 50396ms total)
T48E4 586553:402 JLINK_WriteReg(R5, 0x00000000)  returns 0x00 (0000ms, 50396ms total)
T48E4 586553:402 JLINK_WriteReg(R6, 0x00000000)  returns 0x00 (0000ms, 50396ms total)
T48E4 586553:402 JLINK_WriteReg(R7, 0x00000000)  returns 0x00 (0000ms, 50396ms total)
T48E4 586553:402 JLINK_WriteReg(R8, 0x00000000)  returns 0x00 (0000ms, 50396ms total)
T48E4 586553:402 JLINK_WriteReg(R9, 0x100001DC)  returns 0x00 (0000ms, 50396ms total)
T48E4 586553:402 JLINK_WriteReg(R10, 0x00000000)  returns 0x00 (0000ms, 50396ms total)
T48E4 586553:402 JLINK_WriteReg(R11, 0x00000000)  returns 0x00 (0000ms, 50396ms total)
T48E4 586553:402 JLINK_WriteReg(R12, 0x00000000)  returns 0x00 (0000ms, 50396ms total)
T48E4 586553:402 JLINK_WriteReg(R13 (SP), 0x10000FE0)  returns 0x00 (0000ms, 50396ms total)
T48E4 586553:402 JLINK_WriteReg(R14, 0x10000001)  returns 0x00 (0000ms, 50396ms total)
T48E4 586553:402 JLINK_WriteReg(R15 (PC), 0x10000020)  returns 0x00 (0000ms, 50396ms total)
T48E4 586553:402 JLINK_WriteReg(XPSR, 0x01000000)  returns 0x00 (0000ms, 50396ms total)
T48E4 586553:402 JLINK_WriteReg(MSP, 0x10000FE0)  returns 0x00 (0000ms, 50396ms total)
T48E4 586553:402 JLINK_WriteReg(PSP, 0x10000FE0)  returns 0x00 (0000ms, 50396ms total)
T48E4 586553:402 JLINK_WriteReg(CFBP, 0x00000000)  returns 0x00 (0000ms, 50396ms total)
T48E4 586553:402 JLINK_SetBPEx(Addr = 0x10000000, Type = 0xFFFFFFF2)  returns 0x00000002 (0000ms, 50396ms total)
T48E4 586553:402 JLINK_Go() -- CPU_ReadMem(4 bytes @ 0xE0001000) (0002ms, 50398ms total)
T48E4 586553:404 JLINK_IsHalted()  returns TRUE (0002ms, 50400ms total)
T48E4 586553:406 JLINK_ReadReg(R15 (PC))  returns 0x10000000 (0000ms, 50398ms total)
T48E4 586553:406 JLINK_ClrBPEx(BPHandle = 0x00000002)  returns 0x00 (0000ms, 50398ms total)
T48E4 586553:406 JLINK_ReadReg(R0)  returns 0x00000001 (0000ms, 50398ms total)
T48E4 586553:406 JLINK_WriteReg(R0, 0x00000000)  returns 0x00 (0000ms, 50398ms total)
T48E4 586553:406 JLINK_WriteReg(R1, 0x00001000)  returns 0x00 (0000ms, 50398ms total)
T48E4 586553:406 JLINK_WriteReg(R2, 0x000000FF)  returns 0x00 (0000ms, 50398ms total)
T48E4 586553:406 JLINK_WriteReg(R3, 0x00000000)  returns 0x00 (0000ms, 50398ms total)
T48E4 586553:406 JLINK_WriteReg(R4, 0x00000000)  returns 0x00 (0000ms, 50398ms total)
T48E4 586553:406 JLINK_WriteReg(R5, 0x00000000)  returns 0x00 (0000ms, 50398ms total)
T48E4 586553:406 JLINK_WriteReg(R6, 0x00000000)  returns 0x00 (0000ms, 50398ms total)
T48E4 586553:406 JLINK_WriteReg(R7, 0x00000000)  returns 0x00 (0000ms, 50398ms total)
T48E4 586553:406 JLINK_WriteReg(R8, 0x00000000)  returns 0x00 (0000ms, 50398ms total)
T48E4 586553:406 JLINK_WriteReg(R9, 0x100001DC)  returns 0x00 (0000ms, 50398ms total)
T48E4 586553:406 JLINK_WriteReg(R10, 0x00000000)  returns 0x00 (0000ms, 50398ms total)
T48E4 586553:406 JLINK_WriteReg(R11, 0x00000000)  returns 0x00 (0000ms, 50398ms total)
T48E4 586553:406 JLINK_WriteReg(R12, 0x00000000)  returns 0x00 (0000ms, 50398ms total)
T48E4 586553:406 JLINK_WriteReg(R13 (SP), 0x10000FE0)  returns 0x00 (0000ms, 50398ms total)
T48E4 586553:406 JLINK_WriteReg(R14, 0x10000001)  returns 0x00 (0000ms, 50398ms total)
T48E4 586553:406 JLINK_WriteReg(R15 (PC), 0x10000110)  returns 0x00 (0001ms, 50399ms total)
T48E4 586553:407 JLINK_WriteReg(XPSR, 0x01000000)  returns 0x00 (0000ms, 50399ms total)
T48E4 586553:407 JLINK_WriteReg(MSP, 0x10000FE0)  returns 0x00 (0000ms, 50399ms total)
T48E4 586553:407 JLINK_WriteReg(PSP, 0x10000FE0)  returns 0x00 (0000ms, 50399ms total)
T48E4 586553:407 JLINK_WriteReg(CFBP, 0x00000000)  returns 0x00 (0000ms, 50399ms total)
T48E4 586553:407 JLINK_SetBPEx(Addr = 0x10000000, Type = 0xFFFFFFF2)  returns 0x00000003 (0000ms, 50399ms total)
T48E4 586553:407 JLINK_Go() -- CPU_ReadMem(4 bytes @ 0xE0001000) (0002ms, 50401ms total)
T48E4 586553:409 JLINK_IsHalted()  returns FALSE (0000ms, 50401ms total)
T48E4 586553:471 JLINK_IsHalted()  returns FALSE (0000ms, 50401ms total)
T48E4 586553:473 JLINK_IsHalted()  returns FALSE (0000ms, 50401ms total)
T48E4 586553:475 JLINK_IsHalted()  returns FALSE (0001ms, 50402ms total)
T48E4 586553:478 JLINK_IsHalted()  returns FALSE (0000ms, 50401ms total)
T48E4 586553:480 JLINK_IsHalted()  returns FALSE (0001ms, 50402ms total)
T48E4 586553:482 JLINK_IsHalted()  returns FALSE (0000ms, 50401ms total)
T48E4 586553:484 JLINK_IsHalted()  returns FALSE (0000ms, 50401ms total)
T48E4 586553:487 JLINK_IsHalted()  returns FALSE (0000ms, 50401ms total)
T48E4 586553:489 JLINK_IsHalted()  returns FALSE (0000ms, 50401ms total)
T48E4 586553:492 JLINK_IsHalted()  returns FALSE (0000ms, 50401ms total)
T48E4 586553:494 JLINK_IsHalted()  returns FALSE (0000ms, 50401ms total)
T48E4 586553:496 JLINK_IsHalted()  returns FALSE (0000ms, 50401ms total)
T48E4 586553:499 JLINK_IsHalted()  returns FALSE (0000ms, 50401ms total)
T48E4 586553:505 JLINK_IsHalted()  returns FALSE (0000ms, 50401ms total)
T48E4 586553:507 JLINK_IsHalted()  returns FALSE (0000ms, 50401ms total)
T48E4 586553:509 JLINK_IsHalted()  returns TRUE (0002ms, 50403ms total)
T48E4 586553:511 JLINK_ReadReg(R15 (PC))  returns 0x10000000 (0000ms, 50401ms total)
T48E4 586553:511 JLINK_ClrBPEx(BPHandle = 0x00000003)  returns 0x00 (0000ms, 50401ms total)
T48E4 586553:511 JLINK_ReadReg(R0)  returns 0x00000000 (0000ms, 50401ms total)
T48E4 586553:512 JLINK_WriteReg(R0, 0x00001000)  returns 0x00 (0000ms, 50401ms total)
T48E4 586553:512 JLINK_WriteReg(R1, 0x00001000)  returns 0x00 (0000ms, 50401ms total)
T48E4 586553:512 JLINK_WriteReg(R2, 0x000000FF)  returns 0x00 (0000ms, 50401ms total)
T48E4 586553:512 JLINK_WriteReg(R3, 0x00000000)  returns 0x00 (0000ms, 50401ms total)
T48E4 586553:512 JLINK_WriteReg(R4, 0x00000000)  returns 0x00 (0000ms, 50401ms total)
T48E4 586553:512 JLINK_WriteReg(R5, 0x00000000)  returns 0x00 (0000ms, 50401ms total)
T48E4 586553:512 JLINK_WriteReg(R6, 0x00000000)  returns 0x00 (0000ms, 50401ms total)
T48E4 586553:512 JLINK_WriteReg(R7, 0x00000000)  returns 0x00 (0000ms, 50401ms total)
T48E4 586553:512 JLINK_WriteReg(R8, 0x00000000)  returns 0x00 (0000ms, 50401ms total)
T48E4 586553:512 JLINK_WriteReg(R9, 0x100001DC)  returns 0x00 (0000ms, 50401ms total)
T48E4 586553:512 JLINK_WriteReg(R10, 0x00000000)  returns 0x00 (0000ms, 50401ms total)
T48E4 586553:512 JLINK_WriteReg(R11, 0x00000000)  returns 0x00 (0000ms, 50401ms total)
T48E4 586553:512 JLINK_WriteReg(R12, 0x00000000)  returns 0x00 (0000ms, 50401ms total)
T48E4 586553:512 JLINK_WriteReg(R13 (SP), 0x10000FE0)  returns 0x00 (0000ms, 50401ms total)
T48E4 586553:512 JLINK_WriteReg(R14, 0x10000001)  returns 0x00 (0000ms, 50401ms total)
T48E4 586553:512 JLINK_WriteReg(R15 (PC), 0x10000020)  returns 0x00 (0000ms, 50401ms total)
T48E4 586553:512 JLINK_WriteReg(XPSR, 0x01000000)  returns 0x00 (0000ms, 50401ms total)
T48E4 586553:512 JLINK_WriteReg(MSP, 0x10000FE0)  returns 0x00 (0001ms, 50402ms total)
T48E4 586553:513 JLINK_WriteReg(PSP, 0x10000FE0)  returns 0x00 (0000ms, 50402ms total)
T48E4 586553:513 JLINK_WriteReg(CFBP, 0x00000000)  returns 0x00 (0000ms, 50402ms total)
T48E4 586553:513 JLINK_SetBPEx(Addr = 0x10000000, Type = 0xFFFFFFF2)  returns 0x00000004 (0000ms, 50402ms total)
T48E4 586553:513 JLINK_Go() -- CPU_ReadMem(4 bytes @ 0xE0001000) (0001ms, 50403ms total)
T48E4 586553:514 JLINK_IsHalted()  returns TRUE (0002ms, 50405ms total)
T48E4 586553:516 JLINK_ReadReg(R15 (PC))  returns 0x10000000 (0000ms, 50403ms total)
T48E4 586553:516 JLINK_ClrBPEx(BPHandle = 0x00000004)  returns 0x00 (0000ms, 50403ms total)
T48E4 586553:516 JLINK_ReadReg(R0)  returns 0x00000001 (0000ms, 50403ms total)
T48E4 586553:516 JLINK_WriteReg(R0, 0x00001000)  returns 0x00 (0000ms, 50403ms total)
T48E4 586553:516 JLINK_WriteReg(R1, 0x00001000)  returns 0x00 (0000ms, 50403ms total)
T48E4 586553:516 JLINK_WriteReg(R2, 0x000000FF)  returns 0x00 (0000ms, 50403ms total)
T48E4 586553:516 JLINK_WriteReg(R3, 0x00000000)  returns 0x00 (0000ms, 50403ms total)
T48E4 586553:516 JLINK_WriteReg(R4, 0x00000000)  returns 0x00 (0000ms, 50403ms total)
T48E4 586553:516 JLINK_WriteReg(R5, 0x00000000)  returns 0x00 (0000ms, 50403ms total)
T48E4 586553:516 JLINK_WriteReg(R6, 0x00000000)  returns 0x00 (0000ms, 50403ms total)
T48E4 586553:516 JLINK_WriteReg(R7, 0x00000000)  returns 0x00 (0000ms, 50403ms total)
T48E4 586553:516 JLINK_WriteReg(R8, 0x00000000)  returns 0x00 (0000ms, 50403ms total)
T48E4 586553:516 JLINK_WriteReg(R9, 0x100001DC)  returns 0x00 (0000ms, 50403ms total)
T48E4 586553:516 JLINK_WriteReg(R10, 0x00000000)  returns 0x00 (0000ms, 50403ms total)
T48E4 586553:516 JLINK_WriteReg(R11, 0x00000000)  returns 0x00 (0000ms, 50403ms total)
T48E4 586553:516 JLINK_WriteReg(R12, 0x00000000)  returns 0x00 (0000ms, 50403ms total)
T48E4 586553:516 JLINK_WriteReg(R13 (SP), 0x10000FE0)  returns 0x00 (0000ms, 50403ms total)
T48E4 586553:516 JLINK_WriteReg(R14, 0x10000001)  returns 0x00 (0000ms, 50403ms total)
T48E4 586553:516 JLINK_WriteReg(R15 (PC), 0x10000110)  returns 0x00 (0000ms, 50403ms total)
T48E4 586553:516 JLINK_WriteReg(XPSR, 0x01000000)  returns 0x00 (0000ms, 50403ms total)
T48E4 586553:516 JLINK_WriteReg(MSP, 0x10000FE0)  returns 0x00 (0000ms, 50403ms total)
T48E4 586553:516 JLINK_WriteReg(PSP, 0x10000FE0)  returns 0x00 (0000ms, 50403ms total)
T48E4 586553:516 JLINK_WriteReg(CFBP, 0x00000000)  returns 0x00 (0001ms, 50404ms total)
T48E4 586553:517 JLINK_SetBPEx(Addr = 0x10000000, Type = 0xFFFFFFF2)  returns 0x00000005 (0000ms, 50404ms total)
T48E4 586553:517 JLINK_Go() -- CPU_ReadMem(4 bytes @ 0xE0001000) (0002ms, 50406ms total)
T48E4 586553:519 JLINK_IsHalted()  returns FALSE (0000ms, 50406ms total)
T48E4 586553:520 JLINK_IsHalted()  returns FALSE (0001ms, 50407ms total)
T48E4 586553:523 JLINK_IsHalted()  returns FALSE (0000ms, 50406ms total)
T48E4 586553:525 JLINK_IsHalted()  returns FALSE (0000ms, 50406ms total)
T48E4 586553:526 JLINK_IsHalted()  returns FALSE (0001ms, 50407ms total)
T48E4 586553:529 JLINK_IsHalted()  returns FALSE (0000ms, 50406ms total)
T48E4 586553:533 JLINK_IsHalted()  returns FALSE (0001ms, 50407ms total)
T48E4 586553:536 JLINK_IsHalted()  returns FALSE (0000ms, 50406ms total)
T48E4 586553:538 JLINK_IsHalted()  returns FALSE (0001ms, 50407ms total)
T48E4 586553:541 JLINK_IsHalted()  returns FALSE (0000ms, 50406ms total)
T48E4 586553:543 JLINK_IsHalted()  returns FALSE (0000ms, 50406ms total)
T48E4 586553:545 JLINK_IsHalted()  returns FALSE (0000ms, 50406ms total)
T48E4 586553:548 JLINK_IsHalted()  returns FALSE (0000ms, 50406ms total)
T48E4 586553:550 JLINK_IsHalted()  returns FALSE (0000ms, 50406ms total)
T48E4 586553:552 JLINK_IsHalted()  returns FALSE (0001ms, 50407ms total)
T48E4 586553:555 JLINK_IsHalted()  returns FALSE (0000ms, 50406ms total)
T48E4 586553:558 JLINK_IsHalted()  returns FALSE (0000ms, 50406ms total)
T48E4 586553:560 JLINK_IsHalted()  returns FALSE (0000ms, 50406ms total)
T48E4 586553:561 JLINK_IsHalted()  returns FALSE (0000ms, 50406ms total)
T48E4 586553:564 JLINK_IsHalted()  returns FALSE (0000ms, 50406ms total)
T48E4 586553:566 JLINK_IsHalted()  returns FALSE (0000ms, 50406ms total)
T48E4 586553:569 JLINK_IsHalted()  returns FALSE (0000ms, 50406ms total)
T48E4 586553:571 JLINK_IsHalted()  returns FALSE (0000ms, 50406ms total)
T48E4 586553:573 JLINK_IsHalted()  returns FALSE (0000ms, 50406ms total)
T48E4 586553:575 JLINK_IsHalted()  returns FALSE (0001ms, 50407ms total)
T48E4 586553:578 JLINK_IsHalted()  returns FALSE (0000ms, 50406ms total)
T48E4 586553:580 JLINK_IsHalted()  returns FALSE (0000ms, 50406ms total)
T48E4 586553:582 JLINK_IsHalted()  returns FALSE (0000ms, 50406ms total)
T48E4 586553:584 JLINK_IsHalted()  returns FALSE (0000ms, 50406ms total)
T48E4 586553:586 JLINK_IsHalted()  returns FALSE (0000ms, 50406ms total)
T48E4 586553:588 JLINK_IsHalted()  returns FALSE (0000ms, 50406ms total)
T48E4 586553:590 JLINK_IsHalted()  returns FALSE (0000ms, 50406ms total)
T48E4 586553:592 JLINK_IsHalted()  returns FALSE (0001ms, 50407ms total)
T48E4 586553:595 JLINK_IsHalted()  returns FALSE (0000ms, 50406ms total)
T48E4 586553:597 JLINK_IsHalted()  returns FALSE (0001ms, 50407ms total)
T48E4 586553:600 JLINK_IsHalted()  returns FALSE (0000ms, 50406ms total)
T48E4 586553:603 JLINK_IsHalted()  returns FALSE (0000ms, 50406ms total)
T48E4 586553:605 JLINK_IsHalted()  returns FALSE (0000ms, 50406ms total)
T48E4 586553:614 JLINK_IsHalted()  returns FALSE (0000ms, 50406ms total)
T48E4 586553:617 JLINK_IsHalted()  returns FALSE (0000ms, 50406ms total)
T48E4 586553:619 JLINK_IsHalted()  returns TRUE (0002ms, 50408ms total)
T48E4 586553:621 JLINK_ReadReg(R15 (PC))  returns 0x10000000 (0000ms, 50406ms total)
T48E4 586553:621 JLINK_ClrBPEx(BPHandle = 0x00000005)  returns 0x00 (0000ms, 50406ms total)
T48E4 586553:621 JLINK_ReadReg(R0)  returns 0x00000000 (0000ms, 50406ms total)
T48E4 586553:622 JLINK_WriteReg(R0, 0x00002000)  returns 0x00 (0000ms, 50406ms total)
T48E4 586553:622 JLINK_WriteReg(R1, 0x00001000)  returns 0x00 (0000ms, 50406ms total)
T48E4 586553:622 JLINK_WriteReg(R2, 0x000000FF)  returns 0x00 (0000ms, 50406ms total)
T48E4 586553:622 JLINK_WriteReg(R3, 0x00000000)  returns 0x00 (0000ms, 50406ms total)
T48E4 586553:622 JLINK_WriteReg(R4, 0x00000000)  returns 0x00 (0000ms, 50406ms total)
T48E4 586553:622 JLINK_WriteReg(R5, 0x00000000)  returns 0x00 (0000ms, 50406ms total)
T48E4 586553:622 JLINK_WriteReg(R6, 0x00000000)  returns 0x00 (0000ms, 50406ms total)
T48E4 586553:622 JLINK_WriteReg(R7, 0x00000000)  returns 0x00 (0000ms, 50406ms total)
T48E4 586553:622 JLINK_WriteReg(R8, 0x00000000)  returns 0x00 (0000ms, 50406ms total)
T48E4 586553:622 JLINK_WriteReg(R9, 0x100001DC)  returns 0x00 (0000ms, 50406ms total)
T48E4 586553:622 JLINK_WriteReg(R10, 0x00000000)  returns 0x00 (0000ms, 50406ms total)
T48E4 586553:622 JLINK_WriteReg(R11, 0x00000000)  returns 0x00 (0000ms, 50406ms total)
T48E4 586553:622 JLINK_WriteReg(R12, 0x00000000)  returns 0x00 (0000ms, 50406ms total)
T48E4 586553:622 JLINK_WriteReg(R13 (SP), 0x10000FE0)  returns 0x00 (0000ms, 50406ms total)
T48E4 586553:622 JLINK_WriteReg(R14, 0x10000001)  returns 0x00 (0000ms, 50406ms total)
T48E4 586553:622 JLINK_WriteReg(R15 (PC), 0x10000020)  returns 0x00 (0000ms, 50406ms total)
T48E4 586553:622 JLINK_WriteReg(XPSR, 0x01000000)  returns 0x00 (0001ms, 50407ms total)
T48E4 586553:623 JLINK_WriteReg(MSP, 0x10000FE0)  returns 0x00 (0000ms, 50407ms total)
T48E4 586553:623 JLINK_WriteReg(PSP, 0x10000FE0)  returns 0x00 (0000ms, 50407ms total)
T48E4 586553:623 JLINK_WriteReg(CFBP, 0x00000000)  returns 0x00 (0000ms, 50407ms total)
T48E4 586553:623 JLINK_SetBPEx(Addr = 0x10000000, Type = 0xFFFFFFF2)  returns 0x00000006 (0000ms, 50407ms total)
T48E4 586553:623 JLINK_Go() -- CPU_ReadMem(4 bytes @ 0xE0001000) (0001ms, 50408ms total)
T48E4 586553:624 JLINK_IsHalted()  returns TRUE (0002ms, 50410ms total)
T48E4 586553:626 JLINK_ReadReg(R15 (PC))  returns 0x10000000 (0000ms, 50408ms total)
T48E4 586553:626 JLINK_ClrBPEx(BPHandle = 0x00000006)  returns 0x00 (0000ms, 50408ms total)
T48E4 586553:626 JLINK_ReadReg(R0)  returns 0x00000001 (0000ms, 50408ms total)
T48E4 586553:626 JLINK_WriteReg(R0, 0x00002000)  returns 0x00 (0000ms, 50408ms total)
T48E4 586553:626 JLINK_WriteReg(R1, 0x00001000)  returns 0x00 (0000ms, 50408ms total)
T48E4 586553:626 JLINK_WriteReg(R2, 0x000000FF)  returns 0x00 (0000ms, 50408ms total)
T48E4 586553:626 JLINK_WriteReg(R3, 0x00000000)  returns 0x00 (0000ms, 50408ms total)
T48E4 586553:626 JLINK_WriteReg(R4, 0x00000000)  returns 0x00 (0000ms, 50408ms total)
T48E4 586553:626 JLINK_WriteReg(R5, 0x00000000)  returns 0x00 (0000ms, 50408ms total)
T48E4 586553:626 JLINK_WriteReg(R6, 0x00000000)  returns 0x00 (0000ms, 50408ms total)
T48E4 586553:626 JLINK_WriteReg(R7, 0x00000000)  returns 0x00 (0000ms, 50408ms total)
T48E4 586553:626 JLINK_WriteReg(R8, 0x00000000)  returns 0x00 (0000ms, 50408ms total)
T48E4 586553:626 JLINK_WriteReg(R9, 0x100001DC)  returns 0x00 (0000ms, 50408ms total)
T48E4 586553:626 JLINK_WriteReg(R10, 0x00000000)  returns 0x00 (0000ms, 50408ms total)
T48E4 586553:626 JLINK_WriteReg(R11, 0x00000000)  returns 0x00 (0000ms, 50408ms total)
T48E4 586553:626 JLINK_WriteReg(R12, 0x00000000)  returns 0x00 (0000ms, 50408ms total)
T48E4 586553:626 JLINK_WriteReg(R13 (SP), 0x10000FE0)  returns 0x00 (0000ms, 50408ms total)
T48E4 586553:626 JLINK_WriteReg(R14, 0x10000001)  returns 0x00 (0000ms, 50408ms total)
T48E4 586553:626 JLINK_WriteReg(R15 (PC), 0x10000110)  returns 0x00 (0000ms, 50408ms total)
T48E4 586553:626 JLINK_WriteReg(XPSR, 0x01000000)  returns 0x00 (0000ms, 50408ms total)
T48E4 586553:626 JLINK_WriteReg(MSP, 0x10000FE0)  returns 0x00 (0000ms, 50408ms total)
T48E4 586553:626 JLINK_WriteReg(PSP, 0x10000FE0)  returns 0x00 (0000ms, 50408ms total)
T48E4 586553:627 JLINK_WriteReg(CFBP, 0x00000000)  returns 0x00 (0000ms, 50408ms total)
T48E4 586553:627 JLINK_SetBPEx(Addr = 0x10000000, Type = 0xFFFFFFF2)  returns 0x00000007 (0000ms, 50408ms total)
T48E4 586553:627 JLINK_Go() -- CPU_ReadMem(4 bytes @ 0xE0001000) (0001ms, 50409ms total)
T48E4 586553:628 JLINK_IsHalted()  returns FALSE (0001ms, 50410ms total)
T48E4 586553:630 JLINK_IsHalted()  returns FALSE (0000ms, 50409ms total)
T48E4 586553:632 JLINK_IsHalted()  returns FALSE (0000ms, 50409ms total)
T48E4 586553:633 JLINK_IsHalted()  returns FALSE (0001ms, 50410ms total)
T48E4 586553:636 JLINK_IsHalted()  returns FALSE (0000ms, 50409ms total)
T48E4 586553:638 JLINK_IsHalted()  returns FALSE (0000ms, 50409ms total)
T48E4 586553:640 JLINK_IsHalted()  returns FALSE (0001ms, 50410ms total)
T48E4 586553:643 JLINK_IsHalted()  returns FALSE (0000ms, 50409ms total)
T48E4 586553:646 JLINK_IsHalted()  returns FALSE (0000ms, 50409ms total)
T48E4 586553:648 JLINK_IsHalted()  returns FALSE (0000ms, 50409ms total)
T48E4 586553:651 JLINK_IsHalted()  returns FALSE (0000ms, 50409ms total)
T48E4 586553:653 JLINK_IsHalted()  returns FALSE (0000ms, 50409ms total)
T48E4 586553:656 JLINK_IsHalted()  returns FALSE (0000ms, 50409ms total)
T48E4 586553:658 JLINK_IsHalted()  returns FALSE (0001ms, 50410ms total)
T48E4 586553:661 JLINK_IsHalted()  returns FALSE (0000ms, 50409ms total)
T48E4 586553:662 JLINK_IsHalted()  returns FALSE (0001ms, 50410ms total)
T48E4 586553:665 JLINK_IsHalted()  returns FALSE (0000ms, 50409ms total)
T48E4 586553:667 JLINK_IsHalted()  returns FALSE (0000ms, 50409ms total)
T48E4 586553:668 JLINK_IsHalted()  returns FALSE (0000ms, 50409ms total)
T48E4 586553:670 JLINK_IsHalted()  returns FALSE (0000ms, 50409ms total)
T48E4 586553:672 JLINK_IsHalted()  returns FALSE (0000ms, 50409ms total)
T48E4 586553:674 JLINK_IsHalted()  returns FALSE (0000ms, 50409ms total)
T48E4 586553:677 JLINK_IsHalted()  returns FALSE (0000ms, 50409ms total)
T48E4 586553:679 JLINK_IsHalted()  returns FALSE (0000ms, 50409ms total)
T48E4 586553:681 JLINK_IsHalted()  returns FALSE (0000ms, 50409ms total)
T48E4 586553:683 JLINK_IsHalted()  returns FALSE (0000ms, 50409ms total)
T48E4 586553:686 JLINK_IsHalted()  returns FALSE (0000ms, 50409ms total)
T48E4 586553:687 JLINK_IsHalted()  returns FALSE (0000ms, 50409ms total)
T48E4 586553:690 JLINK_IsHalted()  returns FALSE (0000ms, 50409ms total)
T48E4 586553:692 JLINK_IsHalted()  returns FALSE (0001ms, 50410ms total)
T48E4 586553:695 JLINK_IsHalted()  returns FALSE (0000ms, 50409ms total)
T48E4 586553:697 JLINK_IsHalted()  returns FALSE (0001ms, 50410ms total)
T48E4 586553:700 JLINK_IsHalted()  returns FALSE (0000ms, 50409ms total)
T48E4 586553:702 JLINK_IsHalted()  returns FALSE (0000ms, 50409ms total)
T48E4 586553:704 JLINK_IsHalted()  returns FALSE (0000ms, 50409ms total)
T48E4 586553:706 JLINK_IsHalted()  returns FALSE (0001ms, 50410ms total)
T48E4 586553:709 JLINK_IsHalted()  returns FALSE (0000ms, 50409ms total)
T48E4 586553:711 JLINK_IsHalted()  returns FALSE (0000ms, 50409ms total)
T48E4 586553:720 JLINK_IsHalted()  returns FALSE (0000ms, 50409ms total)
T48E4 586553:723 JLINK_IsHalted()  returns FALSE (0000ms, 50409ms total)
T48E4 586553:727 JLINK_IsHalted()  returns FALSE (0001ms, 50410ms total)
T48E4 586553:730 JLINK_IsHalted()  returns TRUE (0001ms, 50410ms total)
T48E4 586553:731 JLINK_ReadReg(R15 (PC))  returns 0x10000000 (0000ms, 50409ms total)
T48E4 586553:731 JLINK_ClrBPEx(BPHandle = 0x00000007)  returns 0x00 (0000ms, 50409ms total)
T48E4 586553:731 JLINK_ReadReg(R0)  returns 0x00000000 (0000ms, 50409ms total)
T48E4 586553:732 JLINK_WriteReg(R0, 0x00003000)  returns 0x00 (0000ms, 50409ms total)
T48E4 586553:732 JLINK_WriteReg(R1, 0x00001000)  returns 0x00 (0000ms, 50409ms total)
T48E4 586553:732 JLINK_WriteReg(R2, 0x000000FF)  returns 0x00 (0000ms, 50409ms total)
T48E4 586553:732 JLINK_WriteReg(R3, 0x00000000)  returns 0x00 (0000ms, 50409ms total)
T48E4 586553:732 JLINK_WriteReg(R4, 0x00000000)  returns 0x00 (0000ms, 50409ms total)
T48E4 586553:732 JLINK_WriteReg(R5, 0x00000000)  returns 0x00 (0000ms, 50409ms total)
T48E4 586553:732 JLINK_WriteReg(R6, 0x00000000)  returns 0x00 (0000ms, 50409ms total)
T48E4 586553:732 JLINK_WriteReg(R7, 0x00000000)  returns 0x00 (0000ms, 50409ms total)
T48E4 586553:732 JLINK_WriteReg(R8, 0x00000000)  returns 0x00 (0000ms, 50409ms total)
T48E4 586553:732 JLINK_WriteReg(R9, 0x100001DC)  returns 0x00 (0000ms, 50409ms total)
T48E4 586553:732 JLINK_WriteReg(R10, 0x00000000)  returns 0x00 (0000ms, 50409ms total)
T48E4 586553:732 JLINK_WriteReg(R11, 0x00000000)  returns 0x00 (0000ms, 50409ms total)
T48E4 586553:732 JLINK_WriteReg(R12, 0x00000000)  returns 0x00 (0000ms, 50409ms total)
T48E4 586553:732 JLINK_WriteReg(R13 (SP), 0x10000FE0)  returns 0x00 (0000ms, 50409ms total)
T48E4 586553:732 JLINK_WriteReg(R14, 0x10000001)  returns 0x00 (0000ms, 50409ms total)
T48E4 586553:732 JLINK_WriteReg(R15 (PC), 0x10000020)  returns 0x00 (0000ms, 50409ms total)
T48E4 586553:732 JLINK_WriteReg(XPSR, 0x01000000)  returns 0x00 (0000ms, 50409ms total)
T48E4 586553:732 JLINK_WriteReg(MSP, 0x10000FE0)  returns 0x00 (0000ms, 50409ms total)
T48E4 586553:732 JLINK_WriteReg(PSP, 0x10000FE0)  returns 0x00 (0001ms, 50410ms total)
T48E4 586553:733 JLINK_WriteReg(CFBP, 0x00000000)  returns 0x00 (0000ms, 50410ms total)
T48E4 586553:733 JLINK_SetBPEx(Addr = 0x10000000, Type = 0xFFFFFFF2)  returns 0x00000008 (0000ms, 50410ms total)
T48E4 586553:733 JLINK_Go() -- CPU_ReadMem(4 bytes @ 0xE0001000) (0002ms, 50412ms total)
T48E4 586553:735 JLINK_IsHalted()  returns TRUE (0002ms, 50414ms total)
T48E4 586553:737 JLINK_ReadReg(R15 (PC))  returns 0x10000000 (0000ms, 50412ms total)
T48E4 586553:737 JLINK_ClrBPEx(BPHandle = 0x00000008)  returns 0x00 (0000ms, 50412ms total)
T48E4 586553:737 JLINK_ReadReg(R0)  returns 0x00000001 (0000ms, 50412ms total)
T48E4 586553:737 JLINK_WriteReg(R0, 0x00003000)  returns 0x00 (0000ms, 50412ms total)
T48E4 586553:737 JLINK_WriteReg(R1, 0x00001000)  returns 0x00 (0000ms, 50412ms total)
T48E4 586553:737 JLINK_WriteReg(R2, 0x000000FF)  returns 0x00 (0000ms, 50412ms total)
T48E4 586553:737 JLINK_WriteReg(R3, 0x00000000)  returns 0x00 (0000ms, 50412ms total)
T48E4 586553:737 JLINK_WriteReg(R4, 0x00000000)  returns 0x00 (0000ms, 50412ms total)
T48E4 586553:737 JLINK_WriteReg(R5, 0x00000000)  returns 0x00 (0000ms, 50412ms total)
T48E4 586553:737 JLINK_WriteReg(R6, 0x00000000)  returns 0x00 (0000ms, 50412ms total)
T48E4 586553:737 JLINK_WriteReg(R7, 0x00000000)  returns 0x00 (0000ms, 50412ms total)
T48E4 586553:737 JLINK_WriteReg(R8, 0x00000000)  returns 0x00 (0000ms, 50412ms total)
T48E4 586553:737 JLINK_WriteReg(R9, 0x100001DC)  returns 0x00 (0000ms, 50412ms total)
T48E4 586553:737 JLINK_WriteReg(R10, 0x00000000)  returns 0x00 (0000ms, 50412ms total)
T48E4 586553:737 JLINK_WriteReg(R11, 0x00000000)  returns 0x00 (0000ms, 50412ms total)
T48E4 586553:737 JLINK_WriteReg(R12, 0x00000000)  returns 0x00 (0000ms, 50412ms total)
T48E4 586553:737 JLINK_WriteReg(R13 (SP), 0x10000FE0)  returns 0x00 (0000ms, 50412ms total)
T48E4 586553:737 JLINK_WriteReg(R14, 0x10000001)  returns 0x00 (0000ms, 50412ms total)
T48E4 586553:737 JLINK_WriteReg(R15 (PC), 0x10000110)  returns 0x00 (0000ms, 50412ms total)
T48E4 586553:737 JLINK_WriteReg(XPSR, 0x01000000)  returns 0x00 (0001ms, 50413ms total)
T48E4 586553:738 JLINK_WriteReg(MSP, 0x10000FE0)  returns 0x00 (0000ms, 50413ms total)
T48E4 586553:738 JLINK_WriteReg(PSP, 0x10000FE0)  returns 0x00 (0000ms, 50413ms total)
T48E4 586553:738 JLINK_WriteReg(CFBP, 0x00000000)  returns 0x00 (0000ms, 50413ms total)
T48E4 586553:738 JLINK_SetBPEx(Addr = 0x10000000, Type = 0xFFFFFFF2)  returns 0x00000009 (0000ms, 50413ms total)
T48E4 586553:738 JLINK_Go() -- CPU_ReadMem(4 bytes @ 0xE0001000) (0001ms, 50414ms total)
T48E4 586553:739 JLINK_IsHalted()  returns FALSE (0001ms, 50415ms total)
T48E4 586553:744 JLINK_IsHalted()  returns FALSE (0000ms, 50414ms total)
T48E4 586553:746 JLINK_IsHalted()  returns FALSE (0001ms, 50415ms total)
T48E4 586553:751 JLINK_IsHalted()  returns FALSE (0000ms, 50414ms total)
T48E4 586553:753 JLINK_IsHalted()  returns FALSE (0000ms, 50414ms total)
T48E4 586553:755 JLINK_IsHalted()  returns FALSE (0000ms, 50414ms total)
T48E4 586553:757 JLINK_IsHalted()  returns FALSE (0001ms, 50415ms total)
T48E4 586553:759 JLINK_IsHalted()  returns FALSE (0000ms, 50414ms total)
T48E4 586553:760 JLINK_IsHalted()  returns FALSE (0000ms, 50414ms total)
T48E4 586553:764 JLINK_IsHalted()  returns FALSE (0001ms, 50415ms total)
T48E4 586553:767 JLINK_IsHalted()  returns FALSE (0000ms, 50414ms total)
T48E4 586553:768 JLINK_IsHalted()  returns FALSE (0000ms, 50414ms total)
T48E4 586553:773 JLINK_IsHalted()  returns FALSE (0001ms, 50415ms total)
T48E4 586553:776 JLINK_IsHalted()  returns FALSE (0000ms, 50414ms total)
T48E4 586553:778 JLINK_IsHalted()  returns FALSE (0001ms, 50415ms total)
T48E4 586553:783 JLINK_IsHalted()  returns FALSE (0000ms, 50414ms total)
T48E4 586553:785 JLINK_IsHalted()  returns FALSE (0000ms, 50414ms total)
T48E4 586553:789 JLINK_IsHalted()  returns FALSE (0000ms, 50414ms total)
T48E4 586553:791 JLINK_IsHalted()  returns FALSE (0000ms, 50414ms total)
T48E4 586553:793 JLINK_IsHalted()  returns FALSE (0000ms, 50414ms total)
T48E4 586553:798 JLINK_IsHalted()  returns FALSE (0000ms, 50414ms total)
T48E4 586553:799 JLINK_IsHalted()  returns FALSE (0000ms, 50414ms total)
T48E4 586553:801 JLINK_IsHalted()  returns FALSE (0000ms, 50414ms total)
T48E4 586553:806 JLINK_IsHalted()  returns FALSE (0000ms, 50414ms total)
T48E4 586553:808 JLINK_IsHalted()  returns FALSE (0000ms, 50414ms total)
T48E4 586553:810 JLINK_IsHalted()  returns FALSE (0000ms, 50414ms total)
T48E4 586553:815 JLINK_IsHalted()  returns FALSE (0000ms, 50414ms total)
T48E4 586553:816 JLINK_IsHalted()  returns FALSE (0000ms, 50414ms total)
T48E4 586553:823 JLINK_IsHalted()  returns FALSE (0000ms, 50414ms total)
T48E4 586553:825 JLINK_IsHalted()  returns FALSE (0001ms, 50415ms total)
T48E4 586553:830 JLINK_IsHalted()  returns FALSE (0000ms, 50414ms total)
T48E4 586553:832 JLINK_IsHalted()  returns FALSE (0000ms, 50414ms total)
T48E4 586553:834 JLINK_IsHalted()  returns FALSE (0000ms, 50414ms total)
T48E4 586553:838 JLINK_IsHalted()  returns FALSE (0001ms, 50415ms total)
T48E4 586553:841 JLINK_IsHalted()  returns TRUE (0002ms, 50416ms total)
T48E4 586553:843 JLINK_ReadReg(R15 (PC))  returns 0x10000000 (0000ms, 50414ms total)
T48E4 586553:843 JLINK_ClrBPEx(BPHandle = 0x00000009)  returns 0x00 (0000ms, 50414ms total)
T48E4 586553:843 JLINK_ReadReg(R0)  returns 0x00000000 (0000ms, 50414ms total)
T48E4 586553:844 JLINK_WriteReg(R0, 0x00004000)  returns 0x00 (0000ms, 50414ms total)
T48E4 586553:844 JLINK_WriteReg(R1, 0x00001000)  returns 0x00 (0000ms, 50414ms total)
T48E4 586553:844 JLINK_WriteReg(R2, 0x000000FF)  returns 0x00 (0000ms, 50414ms total)
T48E4 586553:844 JLINK_WriteReg(R3, 0x00000000)  returns 0x00 (0000ms, 50414ms total)
T48E4 586553:844 JLINK_WriteReg(R4, 0x00000000)  returns 0x00 (0000ms, 50414ms total)
T48E4 586553:844 JLINK_WriteReg(R5, 0x00000000)  returns 0x00 (0000ms, 50414ms total)
T48E4 586553:844 JLINK_WriteReg(R6, 0x00000000)  returns 0x00 (0000ms, 50414ms total)
T48E4 586553:844 JLINK_WriteReg(R7, 0x00000000)  returns 0x00 (0000ms, 50414ms total)
T48E4 586553:844 JLINK_WriteReg(R8, 0x00000000)  returns 0x00 (0000ms, 50414ms total)
T48E4 586553:844 JLINK_WriteReg(R9, 0x100001DC)  returns 0x00 (0000ms, 50414ms total)
T48E4 586553:844 JLINK_WriteReg(R10, 0x00000000)  returns 0x00 (0000ms, 50414ms total)
T48E4 586553:844 JLINK_WriteReg(R11, 0x00000000)  returns 0x00 (0000ms, 50414ms total)
T48E4 586553:844 JLINK_WriteReg(R12, 0x00000000)  returns 0x00 (0000ms, 50414ms total)
T48E4 586553:844 JLINK_WriteReg(R13 (SP), 0x10000FE0)  returns 0x00 (0000ms, 50414ms total)
T48E4 586553:844 JLINK_WriteReg(R14, 0x10000001)  returns 0x00 (0000ms, 50414ms total)
T48E4 586553:844 JLINK_WriteReg(R15 (PC), 0x10000020)  returns 0x00 (0000ms, 50414ms total)
T48E4 586553:844 JLINK_WriteReg(XPSR, 0x01000000)  returns 0x00 (0000ms, 50414ms total)
T48E4 586553:844 JLINK_WriteReg(MSP, 0x10000FE0)  returns 0x00 (0000ms, 50414ms total)
T48E4 586553:844 JLINK_WriteReg(PSP, 0x10000FE0)  returns 0x00 (0001ms, 50415ms total)
T48E4 586553:845 JLINK_WriteReg(CFBP, 0x00000000)  returns 0x00 (0000ms, 50415ms total)
T48E4 586553:845 JLINK_SetBPEx(Addr = 0x10000000, Type = 0xFFFFFFF2)  returns 0x0000000A (0000ms, 50415ms total)
T48E4 586553:845 JLINK_Go() -- CPU_ReadMem(4 bytes @ 0xE0001000) (0001ms, 50416ms total)
T48E4 586553:846 JLINK_IsHalted()  returns TRUE (0002ms, 50418ms total)
T48E4 586553:848 JLINK_ReadReg(R15 (PC))  returns 0x10000000 (0000ms, 50416ms total)
T48E4 586553:848 JLINK_ClrBPEx(BPHandle = 0x0000000A)  returns 0x00 (0000ms, 50416ms total)
T48E4 586553:848 JLINK_ReadReg(R0)  returns 0x00000001 (0000ms, 50416ms total)
T48E4 586553:848 JLINK_WriteReg(R0, 0x00004000)  returns 0x00 (0000ms, 50416ms total)
T48E4 586553:848 JLINK_WriteReg(R1, 0x00001000)  returns 0x00 (0000ms, 50416ms total)
T48E4 586553:848 JLINK_WriteReg(R2, 0x000000FF)  returns 0x00 (0000ms, 50416ms total)
T48E4 586553:848 JLINK_WriteReg(R3, 0x00000000)  returns 0x00 (0000ms, 50416ms total)
T48E4 586553:848 JLINK_WriteReg(R4, 0x00000000)  returns 0x00 (0000ms, 50416ms total)
T48E4 586553:848 JLINK_WriteReg(R5, 0x00000000)  returns 0x00 (0000ms, 50416ms total)
T48E4 586553:848 JLINK_WriteReg(R6, 0x00000000)  returns 0x00 (0000ms, 50416ms total)
T48E4 586553:848 JLINK_WriteReg(R7, 0x00000000)  returns 0x00 (0000ms, 50416ms total)
T48E4 586553:848 JLINK_WriteReg(R8, 0x00000000)  returns 0x00 (0000ms, 50416ms total)
T48E4 586553:848 JLINK_WriteReg(R9, 0x100001DC)  returns 0x00 (0000ms, 50416ms total)
T48E4 586553:848 JLINK_WriteReg(R10, 0x00000000)  returns 0x00 (0000ms, 50416ms total)
T48E4 586553:848 JLINK_WriteReg(R11, 0x00000000)  returns 0x00 (0000ms, 50416ms total)
T48E4 586553:848 JLINK_WriteReg(R12, 0x00000000)  returns 0x00 (0000ms, 50416ms total)
T48E4 586553:848 JLINK_WriteReg(R13 (SP), 0x10000FE0)  returns 0x00 (0000ms, 50416ms total)
T48E4 586553:848 JLINK_WriteReg(R14, 0x10000001)  returns 0x00 (0000ms, 50416ms total)
T48E4 586553:848 JLINK_WriteReg(R15 (PC), 0x10000110)  returns 0x00 (0001ms, 50417ms total)
T48E4 586553:849 JLINK_WriteReg(XPSR, 0x01000000)  returns 0x00 (0000ms, 50417ms total)
T48E4 586553:849 JLINK_WriteReg(MSP, 0x10000FE0)  returns 0x00 (0000ms, 50417ms total)
T48E4 586553:849 JLINK_WriteReg(PSP, 0x10000FE0)  returns 0x00 (0000ms, 50417ms total)
T48E4 586553:849 JLINK_WriteReg(CFBP, 0x00000000)  returns 0x00 (0000ms, 50417ms total)
T48E4 586553:849 JLINK_SetBPEx(Addr = 0x10000000, Type = 0xFFFFFFF2)  returns 0x0000000B (0000ms, 50417ms total)
T48E4 586553:849 JLINK_Go() -- CPU_ReadMem(4 bytes @ 0xE0001000) (0002ms, 50419ms total)
T48E4 586553:851 JLINK_IsHalted()  returns FALSE (0000ms, 50419ms total)
T48E4 586553:855 JLINK_IsHalted()  returns FALSE (0000ms, 50419ms total)
T48E4 586553:858 JLINK_IsHalted()  returns FALSE (0000ms, 50419ms total)
T48E4 586553:862 JLINK_IsHalted()  returns FALSE (0000ms, 50419ms total)
T48E4 586553:864 JLINK_IsHalted()  returns FALSE (0001ms, 50420ms total)
T48E4 586553:869 JLINK_IsHalted()  returns FALSE (0000ms, 50419ms total)
T48E4 586553:871 JLINK_IsHalted()  returns FALSE (0000ms, 50419ms total)
T48E4 586553:873 JLINK_IsHalted()  returns FALSE (0000ms, 50419ms total)
T48E4 586553:877 JLINK_IsHalted()  returns FALSE (0001ms, 50420ms total)
T48E4 586553:880 JLINK_IsHalted()  returns FALSE (0000ms, 50419ms total)
T48E4 586553:882 JLINK_IsHalted()  returns FALSE (0000ms, 50419ms total)
T48E4 586553:886 JLINK_IsHalted()  returns FALSE (0001ms, 50420ms total)
T48E4 586553:889 JLINK_IsHalted()  returns FALSE (0000ms, 50419ms total)
T48E4 586553:893 JLINK_IsHalted()  returns FALSE (0001ms, 50420ms total)
T48E4 586553:895 JLINK_IsHalted()  returns FALSE (0000ms, 50419ms total)
T48E4 586553:896 JLINK_IsHalted()  returns FALSE (0000ms, 50419ms total)
T48E4 586553:900 JLINK_IsHalted()  returns FALSE (0000ms, 50419ms total)
T48E4 586553:902 JLINK_IsHalted()  returns FALSE (0000ms, 50419ms total)
T48E4 586553:904 JLINK_IsHalted()  returns FALSE (0000ms, 50419ms total)
T48E4 586553:908 JLINK_IsHalted()  returns FALSE (0001ms, 50420ms total)
T48E4 586553:911 JLINK_IsHalted()  returns FALSE (0000ms, 50419ms total)
T48E4 586553:913 JLINK_IsHalted()  returns FALSE (0000ms, 50419ms total)
T48E4 586553:918 JLINK_IsHalted()  returns FALSE (0000ms, 50419ms total)
T48E4 586553:920 JLINK_IsHalted()  returns FALSE (0000ms, 50419ms total)
T48E4 586553:922 JLINK_IsHalted()  returns FALSE (0000ms, 50419ms total)
T48E4 586553:935 JLINK_IsHalted()  returns FALSE (0000ms, 50419ms total)
T48E4 586553:937 JLINK_IsHalted()  returns FALSE (0001ms, 50420ms total)
T48E4 586553:942 JLINK_IsHalted()  returns FALSE (0000ms, 50419ms total)
T48E4 586553:944 JLINK_IsHalted()  returns FALSE (0001ms, 50420ms total)
T48E4 586553:947 JLINK_IsHalted()  returns FALSE (0000ms, 50419ms total)
T48E4 586553:951 JLINK_IsHalted()  returns TRUE (0001ms, 50420ms total)
T48E4 586553:952 JLINK_ReadReg(R15 (PC))  returns 0x10000000 (0000ms, 50419ms total)
T48E4 586553:952 JLINK_ClrBPEx(BPHandle = 0x0000000B)  returns 0x00 (0000ms, 50419ms total)
T48E4 586553:952 JLINK_ReadReg(R0)  returns 0x00000000 (0000ms, 50419ms total)
T48E4 586553:953 JLINK_WriteReg(R0, 0x00005000)  returns 0x00 (0000ms, 50419ms total)
T48E4 586553:953 JLINK_WriteReg(R1, 0x00001000)  returns 0x00 (0000ms, 50419ms total)
T48E4 586553:953 JLINK_WriteReg(R2, 0x000000FF)  returns 0x00 (0000ms, 50419ms total)
T48E4 586553:953 JLINK_WriteReg(R3, 0x00000000)  returns 0x00 (0001ms, 50420ms total)
T48E4 586553:954 JLINK_WriteReg(R4, 0x00000000)  returns 0x00 (0000ms, 50420ms total)
T48E4 586553:954 JLINK_WriteReg(R5, 0x00000000)  returns 0x00 (0000ms, 50420ms total)
T48E4 586553:954 JLINK_WriteReg(R6, 0x00000000)  returns 0x00 (0000ms, 50420ms total)
T48E4 586553:954 JLINK_WriteReg(R7, 0x00000000)  returns 0x00 (0000ms, 50420ms total)
T48E4 586553:954 JLINK_WriteReg(R8, 0x00000000)  returns 0x00 (0000ms, 50420ms total)
T48E4 586553:954 JLINK_WriteReg(R9, 0x100001DC)  returns 0x00 (0000ms, 50420ms total)
T48E4 586553:954 JLINK_WriteReg(R10, 0x00000000)  returns 0x00 (0000ms, 50420ms total)
T48E4 586553:954 JLINK_WriteReg(R11, 0x00000000)  returns 0x00 (0000ms, 50420ms total)
T48E4 586553:954 JLINK_WriteReg(R12, 0x00000000)  returns 0x00 (0000ms, 50420ms total)
T48E4 586553:954 JLINK_WriteReg(R13 (SP), 0x10000FE0)  returns 0x00 (0000ms, 50420ms total)
T48E4 586553:954 JLINK_WriteReg(R14, 0x10000001)  returns 0x00 (0000ms, 50420ms total)
T48E4 586553:954 JLINK_WriteReg(R15 (PC), 0x10000020)  returns 0x00 (0000ms, 50420ms total)
T48E4 586553:954 JLINK_WriteReg(XPSR, 0x01000000)  returns 0x00 (0000ms, 50420ms total)
T48E4 586553:954 JLINK_WriteReg(MSP, 0x10000FE0)  returns 0x00 (0000ms, 50420ms total)
T48E4 586553:954 JLINK_WriteReg(PSP, 0x10000FE0)  returns 0x00 (0000ms, 50420ms total)
T48E4 586553:954 JLINK_WriteReg(CFBP, 0x00000000)  returns 0x00 (0000ms, 50420ms total)
T48E4 586553:954 JLINK_SetBPEx(Addr = 0x10000000, Type = 0xFFFFFFF2)  returns 0x0000000C (0000ms, 50420ms total)
T48E4 586553:954 JLINK_Go() -- CPU_ReadMem(4 bytes @ 0xE0001000) (0002ms, 50422ms total)
T48E4 586553:956 JLINK_IsHalted()  returns TRUE (0002ms, 50424ms total)
T48E4 586553:958 JLINK_ReadReg(R15 (PC))  returns 0x10000000 (0000ms, 50422ms total)
T48E4 586553:958 JLINK_ClrBPEx(BPHandle = 0x0000000C)  returns 0x00 (0000ms, 50422ms total)
T48E4 586553:958 JLINK_ReadReg(R0)  returns 0x00000001 (0000ms, 50422ms total)
T48E4 586553:958 JLINK_WriteReg(R0, 0x00005000)  returns 0x00 (0000ms, 50422ms total)
T48E4 586553:958 JLINK_WriteReg(R1, 0x00001000)  returns 0x00 (0000ms, 50422ms total)
T48E4 586553:958 JLINK_WriteReg(R2, 0x000000FF)  returns 0x00 (0000ms, 50422ms total)
T48E4 586553:958 JLINK_WriteReg(R3, 0x00000000)  returns 0x00 (0000ms, 50422ms total)
T48E4 586553:958 JLINK_WriteReg(R4, 0x00000000)  returns 0x00 (0000ms, 50422ms total)
T48E4 586553:958 JLINK_WriteReg(R5, 0x00000000)  returns 0x00 (0000ms, 50422ms total)
T48E4 586553:958 JLINK_WriteReg(R6, 0x00000000)  returns 0x00 (0000ms, 50422ms total)
T48E4 586553:958 JLINK_WriteReg(R7, 0x00000000)  returns 0x00 (0000ms, 50422ms total)
T48E4 586553:958 JLINK_WriteReg(R8, 0x00000000)  returns 0x00 (0000ms, 50422ms total)
T48E4 586553:958 JLINK_WriteReg(R9, 0x100001DC)  returns 0x00 (0000ms, 50422ms total)
T48E4 586553:958 JLINK_WriteReg(R10, 0x00000000)  returns 0x00 (0000ms, 50422ms total)
T48E4 586553:958 JLINK_WriteReg(R11, 0x00000000)  returns 0x00 (0000ms, 50422ms total)
